Sample in Buffer	Sample in Window	instrAB	instrDB	dataAB_cpu	dataDBo_cpu	dataDBi_cpu	selector	wmode_cpu	finish	datarw_cpu	datareq_cpu	dataae_cpu	dataack_cpu	cancel_cpu	dataack_mem	datareq_mem	emode_cpu	dataack_ports(2)	datareq_ports(2)	enb
0	0	0000	00010420	00000	0000	00000000	7	0	1	0	0	0	0	0	0	0	0	0	0	0	
1	1	0000	00010420	00000	0000	00000000	7	0	0	0	0	0	0	0	0	0	0	0	0	0	
2	2	0000	00010420	00000	0000	00000000	7	0	0	0	0	0	0	0	0	0	0	0	0	0	
3	3	3000	84204081	03800	0000	00000000	7	0	0	0	0	0	0	0	0	0	0	0	0	0	
4	4	3004	0000040E	00000	0000	00000000	7	0	0	0	0	0	0	0	0	0	0	0	0	0	
5	5	3008	00000000	00000	0000	00000000	7	0	0	0	0	0	0	0	0	0	0	0	0	0	
6	6	300C	00000000	00000	0000	00000000	7	0	0	0	0	0	0	0	0	0	0	0	0	0	
7	7	0000	00010420	00000	0000	00000000	7	0	0	0	0	0	0	0	0	0	0	0	0	0	
8	8	0004	00008428	00000	0000	00000000	7	0	0	0	0	0	0	0	0	0	0	0	0	0	
9	9	0008	00008144	00000	0000	00000000	7	0	0	0	0	0	0	0	0	0	0	0	0	0	
10	10	000C	00000000	00001	0000	00000000	7	0	0	0	0	0	0	0	0	0	0	0	0	0	
11	11	0010	00000000	10000	0000	00000000	7	0	0	0	0	0	0	0	0	0	0	0	0	0	
12	12	0014	00000000	10000	0000	00000000	7	3	0	0	1	0	0	0	0	1	0	0	0	0	
13	13	0014	00000000	10000	0000	00000000	7	3	0	0	0	0	0	0	0	0	0	0	0	1	
14	14	0014	00000000	10000	0000	0000EFFC	7	3	0	0	0	0	0	0	0	0	0	0	0	1	
15	15	0014	00000000	10000	0000	0000EFFC	7	3	0	0	0	0	1	0	1	0	0	0	0	1	
16	16	0018	00000000	00000	0000	00000000	7	0	0	0	0	0	0	0	0	0	0	0	0	0	
17	17	001C	00000420	00000	0000	00000000	7	0	0	0	0	0	0	0	0	0	0	0	0	0	
18	18	0020	01CC8428	00000	0000	00000000	7	0	0	0	0	0	0	0	0	0	0	0	0	0	
19	19	0024	00042961	00000	0000	00000000	7	0	0	0	0	0	0	0	0	0	0	0	0	0	
20	20	0028	00001947	00000	0000	00000000	7	0	0	0	0	0	0	0	0	0	0	0	0	0	
21	21	002C	00000000	001CC	0000	00000000	7	0	0	0	0	0	0	0	0	0	0	0	0	0	
22	22	0030	00000000	0EFF8	0000	00000000	7	0	0	0	0	0	0	0	0	0	0	0	0	0	
23	23	0034	00000000	0EFF8	0000	0000EFFC	7	3	0	1	1	0	0	0	0	1	0	0	0	0	
24	24	0034	00000000	0EFF8	0000	0000EFFC	7	3	0	1	0	0	0	0	0	0	0	0	0	1	
25	25	0034	00000000	0EFF8	0000	0000EFFC	7	3	0	1	0	0	0	0	0	0	0	0	0	1	
26	26	0034	00000000	0EFF8	0000	0000EFFC	7	3	0	1	0	0	1	0	1	0	0	0	0	1	
27	27	0038	00000000	00000	0000	00000000	7	0	0	0	0	0	0	0	0	0	0	0	0	0	
28	28	003C	03000863	00000	0000	00000000	7	0	0	0	0	0	0	0	0	0	0	0	0	0	
29	29	0040	0000040F	00000	0000	00000000	7	0	0	0	0	0	0	0	0	0	0	0	0	0	
30	30	0044	000028C4	00000	0000	00000000	7	0	0	0	0	0	0	0	0	0	0	0	0	0	
31	31	0048	00000000	00308	0000	00000000	7	0	0	0	0	0	0	0	0	0	0	0	0	0	
32	32	01CC	FFFC1947	001CC	0000	00000000	7	0	0	0	0	0	0	0	0	0	0	0	0	0	
33	33	01D0	00000000	0EF58	0008	0000EFFC	7	3	0	0	0	0	0	0	0	0	0	0	0	0	
34	34	01D4	00000000	0EFF8	0000	0000EFFC	7	3	0	0	0	0	0	0	0	0	0	0	0	0	
35	35	01D8	00000000	0EFF4	0044	0000EFFC	7	3	0	1	1	0	0	0	0	1	0	0	0	0	
36	36	01D8	00000000	0EFF4	0044	0000EFFC	7	3	0	1	0	0	0	0	0	0	0	0	0	1	
37	37	01D8	00000000	0EFF4	0044	0000EFFC	7	3	0	1	0	0	0	0	0	0	0	0	0	1	
38	38	01D8	00000000	0EFF4	0044	0000EFFC	7	3	0	1	0	0	1	0	1	0	0	0	0	1	
39	39	01DC	00000000	00000	0000	00000000	7	0	0	0	0	0	0	0	0	0	0	0	0	0	
40	40	01E0	FFF82147	00000	0000	00000000	7	0	0	0	0	0	0	0	0	0	0	0	0	0	
41	41	01E4	00000000	00000	0000	00000000	7	0	0	0	0	0	0	0	0	0	0	0	0	0	
42	42	01E8	00000000	00000	0000	00000000	7	0	0	0	0	0	0	0	0	0	0	0	0	0	
43	43	01EC	00000000	0EFF0	0000	0000EFFC	7	3	0	1	1	0	0	0	0	1	0	0	0	0	
44	44	01EC	00000000	0EFF0	0000	0000EFFC	7	3	0	1	0	0	0	0	0	0	0	0	0	1	
45	45	01EC	00000000	0EFF0	0000	0000EFFC	7	3	0	1	0	0	0	0	0	0	0	0	0	1	
46	46	01EC	00000000	0EFF0	0000	0000EFFC	7	3	0	1	0	0	1	0	1	0	0	0	0	1	
47	47	01F0	00000000	00000	0000	00000000	7	0	0	0	0	0	0	0	0	0	0	0	0	0	
48	48	01F4	FFF82920	00000	0000	00000000	7	0	0	0	0	0	0	0	0	0	0	0	0	0	
49	49	01F8	FFD82960	00000	0000	00000000	7	0	0	0	0	0	0	0	0	0	0	0	0	0	
50	50	01FC	00010220	00000	0000	00000000	7	0	0	0	0	0	0	0	0	0	0	0	0	0	
51	51	0200	00044228	0EFF0	0000	00000000	7	0	0	0	0	0	0	0	0	0	0	0	0	0	
52	52	0204	FFFF960C	0EFD0	0000	00000000	7	0	0	0	0	0	0	0	0	0	0	0	0	0	
53	53	0208	000001A0	00001	0000	00000000	7	0	0	0	0	0	0	0	0	0	0	0	0	0	
54	54	020C	000420C4	10004	0000	00000000	7	0	0	0	0	0	0	0	0	0	0	0	0	0	
55	55	0060	FFFC1947	00060	0000	00000000	7	0	0	0	0	0	0	0	0	0	0	0	0	0	
56	56	0064	00000000	00000	0000	00000000	7	0	0	0	0	0	0	0	0	0	0	0	0	0	
57	57	0068	00000000	00000	0000	00000000	7	0	0	0	0	0	0	0	0	0	0	0	0	0	
58	58	006C	00000000	0EFCC	0208	0000EFFC	7	3	0	1	1	0	0	0	0	1	0	0	0	0	
59	59	006C	00000000	0EFCC	0208	0000EFFC	7	3	0	1	0	0	0	0	0	0	0	0	0	1	
60	60	006C	00000000	0EFCC	0208	0000EFFC	7	3	0	1	0	0	0	0	0	0	0	0	0	1	
61	61	006C	00000000	0EFCC	0208	0000EFFC	7	3	0	1	0	0	1	0	1	0	0	0	0	1	
62	62	0070	00000000	00000	0000	00000000	7	0	0	0	0	0	0	0	0	0	0	0	0	0	
63	63	0074	FFF82147	00000	0000	00000000	7	0	0	0	0	0	0	0	0	0	0	0	0	0	
64	64	0078	00000000	00000	0000	00000000	7	0	0	0	0	0	0	0	0	0	0	0	0	0	
65	65	007C	00000000	00000	0000	00000000	7	0	0	0	0	0	0	0	0	0	0	0	0	0	
66	66	0080	00000000	0EFC8	EFF0	0000EFFC	7	3	0	1	1	0	0	0	0	1	0	0	0	0	
67	67	0080	00000000	0EFC8	EFF0	0000EFFC	7	3	0	1	0	0	0	0	0	0	0	0	0	1	
68	68	0080	00000000	0EFC8	EFF0	0000EFFC	7	3	0	1	0	0	0	0	0	0	0	0	0	1	
69	69	0080	00000000	0EFC8	EFF0	0000EFFC	7	3	0	1	0	0	1	0	1	0	0	0	0	1	
70	70	0084	00000000	00000	0000	00000000	7	0	0	0	0	0	0	0	0	0	0	0	0	0	
71	71	0088	FFF82920	00000	0000	00000000	7	0	0	0	0	0	0	0	0	0	0	0	0	0	
72	72	008C	FFF42960	00000	0000	00000000	7	0	0	0	0	0	0	0	0	0	0	0	0	0	
73	73	0090	00084107	00000	0000	00000000	7	0	0	0	0	0	0	0	0	0	0	0	0	0	
74	74	0094	00000000	0EFC8	0000	00000000	7	0	0	0	0	0	0	0	0	0	0	0	0	0	
75	75	0098	00000000	0EFC4	0000	00000000	7	0	0	0	0	0	0	0	0	0	0	0	0	0	
76	76	009C	00000000	0EFD0	0004	0000EFFC	7	3	0	1	1	0	0	0	0	1	0	0	0	0	
77	77	009C	00000000	0EFD0	0004	0000EFFC	7	3	0	1	0	0	0	0	0	0	0	0	0	1	
78	78	009C	00000000	0EFD0	0004	0000EFFC	7	3	0	1	0	0	0	0	0	0	0	0	0	1	
79	79	009C	00000000	0EFD0	0004	0000EFFC	7	3	0	1	0	0	1	0	1	0	0	0	0	1	
80	80	00A0	00000000	00000	0000	00000000	7	0	0	0	0	0	0	0	0	0	0	0	0	0	
81	81	00A4	010001A0	00000	0000	00000000	7	0	0	0	0	0	0	0	0	0	0	0	0	0	
82	82	00A8	000031A8	00000	0000	00000000	7	0	0	0	0	0	0	0	0	0	0	0	0	0	
83	83	00AC	FFFC3107	00000	0000	00000000	7	0	0	0	0	0	0	0	0	0	0	0	0	0	
84	84	00B0	00000000	00100	EFC8	00000000	7	0	0	0	0	0	0	0	0	0	0	0	0	0	
85	85	00B4	00000000	00000	0000	FFFFFFFF	2	0	0	0	0	0	0	0	0	0	0	0	0	0	
86	86	00B8	00000000	0EFC4	0000	0000EFFC	7	3	0	1	1	0	0	0	0	1	0	0	0	0	
87	87	00B8	00000000	0EFC4	0000	0000EFFC	7	3	0	1	0	0	0	0	0	0	0	0	0	1	
88	88	00B8	00000000	0EFC4	0000	0000EFFC	7	3	0	1	0	0	0	0	0	0	0	0	0	1	
89	89	00B8	00000000	0EFC4	0000	0000EFFC	7	3	0	1	0	0	1	0	1	0	0	0	0	1	
90	90	00BC	00000000	00000	0000	00000000	7	0	0	0	0	0	0	0	0	0	0	0	0	0	
91	91	00C0	0000240B	00000	0000	00000000	7	0	0	0	0	0	0	0	0	0	0	0	0	0	
92	92	00C4	00082184	00000	0000	00000000	7	0	0	0	0	0	0	0	0	0	0	0	0	0	
93	93	00C8	00000000	00000	0000	00000000	7	0	0	0	0	0	0	0	0	0	0	0	0	0	
94	94	0154	00082184	00154	0000	00000000	7	0	0	0	0	0	0	0	0	0	0	0	0	0	
95	95	0158	00000000	0EF50	0000	0000EFFC	7	3	0	0	0	0	0	0	0	0	0	0	0	0	
96	96	015C	00000000	0EFD0	0000	0000EFFC	7	3	0	0	0	0	0	0	0	0	0	0	0	0	
97	97	0160	00000000	0EFD0	0000	0000EFFC	7	3	0	0	1	0	0	0	0	1	0	0	0	0	
98	98	0160	00000000	0EFD0	0000	0000EFFC	7	3	0	0	0	0	0	0	0	0	0	0	0	1	
99	99	0160	00000000	0EFD0	0000	00010004	7	3	0	0	0	0	0	0	0	0	0	0	0	1	
100	100	0160	00000000	0EFD0	0000	00010004	7	3	0	0	0	0	1	0	1	0	0	0	0	1	
101	101	0164	00000000	00000	0000	00000000	7	0	0	0	0	0	0	0	0	0	0	0	0	0	
102	102	0168	00000000	00000	0000	00000000	7	0	0	0	0	0	0	0	0	0	0	0	0	0	
103	103	016C	00003182	00000	0000	00000000	7	0	0	0	0	0	0	0	0	0	0	0	0	0	
104	104	0170	00000000	00000	0000	00000000	7	0	0	0	0	0	0	0	0	0	0	0	0	0	
105	105	0174	00000000	00000	0000	00000000	7	0	0	0	0	0	0	0	0	0	0	0	0	0	
106	106	0178	00000000	10004	0000	FFFFFF00	7	0	0	0	1	0	0	0	0	1	1	0	0	0	
107	107	0178	00000000	10004	0000	FFFFFF00	7	0	0	0	0	0	0	0	0	0	1	0	0	1	
108	108	0178	00000000	10004	0000	FFFFFF54	7	0	0	0	0	0	0	0	0	0	1	0	0	1	
109	109	0178	00000000	10004	0000	FFFFFF54	7	0	0	0	0	0	1	0	1	0	1	0	0	1	
110	110	017C	00000000	00000	0000	00000054	7	0	0	0	0	0	0	0	0	0	0	0	0	0	
111	111	0180	00000000	00000	0000	00000054	7	0	0	0	0	0	0	0	0	0	0	0	0	0	
112	112	0184	00FF31E2	00000	0000	00000054	7	0	0	0	0	0	0	0	0	0	0	0	0	0	
113	113	0188	000001A0	00000	0000	00000054	7	0	0	0	0	0	0	0	0	0	0	0	0	0	
114	114	018C	398CC0C1	00000	0000	00000054	7	0	0	0	0	0	0	0	0	0	0	0	0	0	
115	115	0190	FF30300A	00054	0208	00000054	7	0	0	0	0	0	0	0	0	0	0	0	0	0	
116	116	0194	000001A0	00000	0000	00000054	7	0	0	0	0	0	0	0	0	0	0	0	0	0	
117	117	0198	00000000	00054	0000	00000054	7	0	0	0	0	0	0	0	0	0	0	0	0	0	
118	118	00C4	00082184	000C4	0000	00000054	7	0	0	0	0	0	0	0	0	0	0	0	0	0	
119	119	00C8	00000000	00000	0000	00000054	7	0	0	0	0	0	0	0	0	0	0	0	0	0	
120	120	00CC	00000000	00000	0000	00000054	7	0	0	0	0	0	0	0	0	0	0	0	0	0	
121	121	00D0	00000000	0EFD0	0000	54657374	7	3	0	0	1	0	0	0	0	1	0	0	0	0	
122	122	00D0	00000000	0EFD0	0000	54657374	7	3	0	0	0	0	0	0	0	0	0	0	0	1	
123	123	00D0	00000000	0EFD0	0000	00010004	7	3	0	0	0	0	0	0	0	0	0	0	0	1	
124	124	00D0	00000000	0EFD0	0000	00010004	7	3	0	0	0	0	1	0	1	0	0	0	0	1	
125	125	00D4	00000000	00000	0000	00000000	7	0	0	0	0	0	0	0	0	0	0	0	0	0	
126	126	00D8	00000000	00000	0000	00000000	7	0	0	0	0	0	0	0	0	0	0	0	0	0	
127	127	00DC	00003182	00000	0000	00000000	7	0	0	0	0	0	0	0	0	0	0	0	0	0	
128	128	00E0	00000000	00000	0000	00000000	7	0	0	0	0	0	0	0	0	0	0	0	0	0	
129	129	00E4	00000000	00000	0000	00000000	7	0	0	0	0	0	0	0	0	0	0	0	0	0	
130	130	00E8	00000000	10004	0000	FFFFFF00	7	0	0	0	1	0	0	0	0	1	1	0	0	0	
131	131	00E8	00000000	10004	0000	FFFFFF00	7	0	0	0	0	0	0	0	0	0	1	0	0	1	
132	132	00E8	00000000	10004	0000	FFFFFF54	7	0	0	0	0	0	0	0	0	0	1	0	0	1	
133	133	00E8	00000000	10004	0000	FFFFFF54	7	0	0	0	0	0	1	0	1	0	1	0	0	1	
134	134	00EC	00000000	00000	0000	00000054	7	0	0	0	0	0	0	0	0	0	0	0	0	0	
135	135	00F0	00000000	00000	0000	00000054	7	0	0	0	0	0	0	0	0	0	0	0	0	0	
136	136	00F4	00FF31E2	00000	0000	00000054	7	0	0	0	0	0	0	0	0	0	0	0	0	0	
137	137	00F8	FFFC2184	00000	0000	00000054	7	0	0	0	0	0	0	0	0	0	0	0	0	0	
138	138	00FC	00000000	00000	0000	00000054	7	0	0	0	0	0	0	0	0	0	0	0	0	0	
139	139	0100	00000000	00054	0208	00000054	7	0	0	0	0	0	0	0	0	0	0	0	0	0	
140	140	0104	00000000	0EFC4	0000	54657374	7	3	0	0	1	0	0	0	0	1	0	0	0	0	
141	141	0104	00000000	0EFC4	0000	54657374	7	3	0	0	0	0	0	0	0	0	0	0	0	1	
142	142	0104	00000000	0EFC4	0000	01000000	7	3	0	0	0	0	0	0	0	0	0	0	0	1	
143	143	0104	00000000	0EFC4	0000	01000000	7	3	0	0	0	0	1	0	1	0	0	0	0	1	
144	144	0108	00000000	00000	0000	00000001	7	0	0	0	0	0	0	0	0	0	0	0	0	0	
145	145	010C	00000000	00000	0000	00000001	7	0	0	0	0	0	0	0	0	0	0	0	0	0	
146	146	0110	00003987	00000	0000	00000001	7	0	0	0	0	0	0	0	0	0	0	0	0	0	
147	147	0114	00000000	00000	0000	00000001	7	0	0	0	0	0	0	0	0	0	0	0	0	0	
148	148	0118	00000000	00000	0000	00000001	7	0	0	0	0	0	0	0	0	0	0	0	0	0	
149	149	011C	00000000	00000	0054	FFFFFFFF	2	3	0	1	1	0	0	0	0	0	0	0	1	0	
150	150	011C	00000000	00000	0054	FFFFFFFF	2	3	0	1	0	0	0	0	0	0	0	0	0	0	
151	151	011C	00000000	00000	0054	FFFFFFFF	2	3	0	1	0	0	0	0	0	0	0	0	0	0	
152	152	011C	00000000	00000	0054	FFFFFFFF	2	3	0	1	0	0	0	0	0	0	0	0	0	0	
153	153	011C	00000000	00000	0054	FFFFFFFF	2	3	0	1	0	0	0	0	0	0	0	0	0	0	
154	154	011C	00000000	00000	0054	FFFFFFFF	2	3	0	1	0	0	0	0	0	0	0	0	0	0	
155	155	011C	00000000	00000	0054	FFFFFFFF	2	3	0	1	0	0	0	0	0	0	0	0	0	0	
156	156	011C	00000000	00000	0054	FFFFFFFF	2	3	0	1	0	0	0	0	0	0	0	0	0	0	
157	157	011C	00000000	00000	0054	FFFFFFFF	2	3	0	1	0	0	0	0	0	0	0	0	0	0	
158	158	011C	00000000	00000	0054	FFFFFFFF	2	3	0	1	0	0	0	0	0	0	0	0	0	0	
159	159	011C	00000000	00000	0054	FFFFFFFF	2	3	0	1	0	0	0	0	0	0	0	0	0	0	
160	160	011C	00000000	00000	0054	FFFFFFFF	2	3	0	1	0	0	0	0	0	0	0	0	0	0	
161	161	011C	00000000	00000	0054	FFFFFFFF	2	3	0	1	0	0	0	0	0	0	0	0	0	0	
162	162	011C	00000000	00000	0054	FFFFFFFF	2	3	0	1	0	0	0	0	0	0	0	0	0	0	
163	163	011C	00000000	00000	0054	FFFFFFFF	2	3	0	1	0	0	0	0	0	0	0	0	0	0	
164	164	011C	00000000	00000	0054	FFFFFFFF	2	3	0	1	0	0	0	0	0	0	0	0	0	0	
165	165	011C	00000000	00000	0054	FFFFFFFF	2	3	0	1	0	0	0	0	0	0	0	0	0	0	
166	166	011C	00000000	00000	0054	FFFFFFFF	2	3	0	1	0	0	0	0	0	0	0	0	0	0	
167	167	011C	00000000	00000	0054	FFFFFFFF	2	3	0	1	0	0	0	0	0	0	0	0	0	0	
168	168	011C	00000000	00000	0054	FFFFFFFF	2	3	0	1	0	0	0	0	0	0	0	0	0	0	
169	169	011C	00000000	00000	0054	FFFFFFFF	2	3	0	1	0	0	0	0	0	0	0	0	0	0	
170	170	011C	00000000	00000	0054	FFFFFFFF	2	3	0	1	0	0	0	0	0	0	0	0	0	0	
171	171	011C	00000000	00000	0054	FFFFFFFF	2	3	0	1	0	0	0	0	0	0	0	0	0	0	
172	172	011C	00000000	00000	0054	FFFFFFFF	2	3	0	1	0	0	0	0	0	0	0	0	0	0	
173	173	011C	00000000	00000	0054	FFFFFFFF	2	3	0	1	0	0	0	0	0	0	0	0	0	0	
174	174	011C	00000000	00000	0054	FFFFFFFF	2	3	0	1	0	0	0	0	0	0	0	0	0	0	
175	175	011C	00000000	00000	0054	FFFFFFFF	2	3	0	1	0	0	0	0	0	0	0	0	0	0	
176	176	011C	00000000	00000	0054	FFFFFFFF	2	3	0	1	0	0	0	0	0	0	0	0	0	0	
177	177	011C	00000000	00000	0054	FFFFFFFF	2	3	0	1	0	0	0	0	0	0	0	0	0	0	
178	178	011C	00000000	00000	0054	FFFFFFFF	2	3	0	1	0	0	0	0	0	0	0	0	0	0	
179	179	011C	00000000	00000	0054	FFFFFFFF	2	3	0	1	0	0	0	0	0	0	0	0	0	0	
180	180	011C	00000000	00000	0054	FFFFFFFF	2	3	0	1	0	0	0	0	0	0	0	0	0	0	
181	181	011C	00000000	00000	0054	FFFFFFFF	2	3	0	1	0	0	0	0	0	0	0	0	0	0	
182	182	011C	00000000	00000	0054	FFFFFFFF	2	3	0	1	0	0	0	0	0	0	0	0	0	0	
183	183	011C	00000000	00000	0054	FFFFFFFF	2	3	0	1	0	0	0	0	0	0	0	0	0	0	
184	184	011C	00000000	00000	0054	FFFFFFFF	2	3	0	1	0	0	0	0	0	0	0	0	0	0	
185	185	011C	00000000	00000	0054	FFFFFFFF	2	3	0	1	0	0	0	0	0	0	0	0	0	0	
186	186	011C	00000000	00000	0054	FFFFFFFF	2	3	0	1	0	0	0	0	0	0	0	0	0	0	
187	187	011C	00000000	00000	0054	FFFFFFFF	2	3	0	1	0	0	0	0	0	0	0	0	0	0	
188	188	011C	00000000	00000	0054	FFFFFFFF	2	3	0	1	0	0	0	0	0	0	0	0	0	0	
189	189	011C	00000000	00000	0054	FFFFFFFF	2	3	0	1	0	0	0	0	0	0	0	0	0	0	
190	190	011C	00000000	00000	0054	FFFFFFFF	2	3	0	1	0	0	0	0	0	0	0	0	0	0	
191	191	011C	00000000	00000	0054	FFFFFFFF	2	3	0	1	0	0	0	0	0	0	0	0	0	0	
192	192	011C	00000000	00000	0054	FFFFFFFF	2	3	0	1	0	0	0	0	0	0	0	0	0	0	
193	193	011C	00000000	00000	0054	FFFFFFFF	2	3	0	1	0	0	0	0	0	0	0	0	0	0	
194	194	011C	00000000	00000	0054	FFFFFFFF	2	3	0	1	0	0	0	0	0	0	0	0	0	0	
195	195	011C	00000000	00000	0054	FFFFFFFF	2	3	0	1	0	0	0	0	0	0	0	0	0	0	
196	196	011C	00000000	00000	0054	FFFFFFFF	2	3	0	1	0	0	0	0	0	0	0	0	0	0	
197	197	011C	00000000	00000	0054	FFFFFFFF	2	3	0	1	0	0	0	0	0	0	0	0	0	0	
198	198	011C	00000000	00000	0054	FFFFFFFF	2	3	0	1	0	0	0	0	0	0	0	0	0	0	
199	199	011C	00000000	00000	0054	FFFFFFFF	2	3	0	1	0	0	0	0	0	0	0	0	0	0	
200	200	011C	00000000	00000	0054	FFFFFFFF	2	3	0	1	0	0	0	0	0	0	0	0	0	0	
201	201	011C	00000000	00000	0054	FFFFFFFF	2	3	0	1	0	0	0	0	0	0	0	0	0	0	
202	202	011C	00000000	00000	0054	FFFFFFFF	2	3	0	1	0	0	0	0	0	0	0	0	0	0	
203	203	011C	00000000	00000	0054	FFFFFFFF	2	3	0	1	0	0	0	0	0	0	0	0	0	0	
204	204	011C	00000000	00000	0054	FFFFFFFF	2	3	0	1	0	0	0	0	0	0	0	0	0	0	
205	205	011C	00000000	00000	0054	FFFFFFFF	2	3	0	1	0	0	0	0	0	0	0	0	0	0	
206	206	011C	00000000	00000	0054	FFFFFFFF	2	3	0	1	0	0	0	0	0	0	0	0	0	0	
207	207	011C	00000000	00000	0054	FFFFFFFF	2	3	0	1	0	0	0	0	0	0	0	0	0	0	
208	208	011C	00000000	00000	0054	FFFFFFFF	2	3	0	1	0	0	0	0	0	0	0	0	0	0	
209	209	011C	00000000	00000	0054	FFFFFFFF	2	3	0	1	0	0	0	0	0	0	0	0	0	0	
210	210	011C	00000000	00000	0054	FFFFFFFF	2	3	0	1	0	0	0	0	0	0	0	0	0	0	
211	211	011C	00000000	00000	0054	FFFFFFFF	2	3	0	1	0	0	0	0	0	0	0	0	0	0	
212	212	011C	00000000	00000	0054	FFFFFFFF	2	3	0	1	0	0	0	0	0	0	0	0	0	0	
213	213	011C	00000000	00000	0054	FFFFFFFF	2	3	0	1	0	0	0	0	0	0	0	0	0	0	
214	214	011C	00000000	00000	0054	FFFFFFFF	2	3	0	1	0	0	0	0	0	0	0	0	0	0	
215	215	011C	00000000	00000	0054	FFFFFFFF	2	3	0	1	0	0	0	0	0	0	0	0	0	0	
216	216	011C	00000000	00000	0054	FFFFFFFF	2	3	0	1	0	0	0	0	0	0	0	0	0	0	
217	217	011C	00000000	00000	0054	FFFFFFFF	2	3	0	1	0	0	0	0	0	0	0	0	0	0	
218	218	011C	00000000	00000	0054	FFFFFFFF	2	3	0	1	0	0	0	0	0	0	0	0	0	0	
219	219	011C	00000000	00000	0054	FFFFFFFF	2	3	0	1	0	0	0	0	0	0	0	0	0	0	
220	220	011C	00000000	00000	0054	FFFFFFFF	2	3	0	1	0	0	0	0	0	0	0	0	0	0	
221	221	011C	00000000	00000	0054	FFFFFFFF	2	3	0	1	0	0	0	0	0	0	0	0	0	0	
222	222	011C	00000000	00000	0054	FFFFFFFF	2	3	0	1	0	0	0	0	0	0	0	0	0	0	
223	223	011C	00000000	00000	0054	FFFFFFFF	2	3	0	1	0	0	0	0	0	0	0	0	0	0	
224	224	011C	00000000	00000	0054	FFFFFFFF	2	3	0	1	0	0	0	0	0	0	0	0	0	0	
225	225	011C	00000000	00000	0054	FFFFFFFF	2	3	0	1	0	0	0	0	0	0	0	0	0	0	
226	226	011C	00000000	00000	0054	FFFFFFFF	2	3	0	1	0	0	0	0	0	0	0	0	0	0	
227	227	011C	00000000	00000	0054	FFFFFFFF	2	3	0	1	0	0	0	0	0	0	0	0	0	0	
228	228	011C	00000000	00000	0054	FFFFFFFF	2	3	0	1	0	0	0	0	0	0	0	0	0	0	
229	229	011C	00000000	00000	0054	FFFFFFFF	2	3	0	1	0	0	0	0	0	0	0	0	0	0	
230	230	011C	00000000	00000	0054	FFFFFFFF	2	3	0	1	0	0	0	0	0	0	0	0	0	0	
231	231	011C	00000000	00000	0054	FFFFFFFF	2	3	0	1	0	0	0	0	0	0	0	0	0	0	
232	232	011C	00000000	00000	0054	FFFFFFFF	2	3	0	1	0	0	0	0	0	0	0	0	0	0	
233	233	011C	00000000	00000	0054	FFFFFFFF	2	3	0	1	0	0	0	0	0	0	0	0	0	0	
234	234	011C	00000000	00000	0054	FFFFFFFF	2	3	0	1	0	0	0	0	0	0	0	0	0	0	
235	235	011C	00000000	00000	0054	FFFFFFFF	2	3	0	1	0	0	0	0	0	0	0	0	0	0	
236	236	011C	00000000	00000	0054	FFFFFFFF	2	3	0	1	0	0	0	0	0	0	0	0	0	0	
237	237	011C	00000000	00000	0054	FFFFFFFF	2	3	0	1	0	0	0	0	0	0	0	0	0	0	
238	238	011C	00000000	00000	0054	FFFFFFFF	2	3	0	1	0	0	0	0	0	0	0	0	0	0	
239	239	011C	00000000	00000	0054	FFFFFFFF	2	3	0	1	0	0	0	0	0	0	0	0	0	0	
240	240	011C	00000000	00000	0054	FFFFFFFF	2	3	0	1	0	0	0	0	0	0	0	0	0	0	
241	241	011C	00000000	00000	0054	FFFFFFFF	2	3	0	1	0	0	0	0	0	0	0	0	0	0	
242	242	011C	00000000	00000	0054	FFFFFFFF	2	3	0	1	0	0	0	0	0	0	0	0	0	0	
243	243	011C	00000000	00000	0054	FFFFFFFF	2	3	0	1	0	0	0	0	0	0	0	0	0	0	
244	244	011C	00000000	00000	0054	FFFFFFFF	2	3	0	1	0	0	0	0	0	0	0	0	0	0	
245	245	011C	00000000	00000	0054	FFFFFFFF	2	3	0	1	0	0	0	0	0	0	0	0	0	0	
246	246	011C	00000000	00000	0054	FFFFFFFF	2	3	0	1	0	0	0	0	0	0	0	0	0	0	
247	247	011C	00000000	00000	0054	FFFFFFFF	2	3	0	1	0	0	0	0	0	0	0	0	0	0	
248	248	011C	00000000	00000	0054	FFFFFFFF	2	3	0	1	0	0	0	0	0	0	0	0	0	0	
249	249	011C	00000000	00000	0054	FFFFFFFF	2	3	0	1	0	0	0	0	0	0	0	0	0	0	
250	250	011C	00000000	00000	0054	FFFFFFFF	2	3	0	1	0	0	0	0	0	0	0	0	0	0	
251	251	011C	00000000	00000	0054	FFFFFFFF	2	3	0	1	0	0	0	0	0	0	0	0	0	0	
252	252	011C	00000000	00000	0054	FFFFFFFF	2	3	0	1	0	0	0	0	0	0	0	0	0	0	
253	253	011C	00000000	00000	0054	FFFFFFFF	2	3	0	1	0	0	0	0	0	0	0	0	0	0	
254	254	011C	00000000	00000	0054	FFFFFFFF	2	3	0	1	0	0	0	0	0	0	0	0	0	0	
255	255	011C	00000000	00000	0054	FFFFFFFF	2	3	0	1	0	0	0	0	0	0	0	0	0	0	
256	256	011C	00000000	00000	0054	FFFFFFFF	2	3	0	1	0	0	0	0	0	0	0	0	0	0	
257	257	011C	00000000	00000	0054	FFFFFFFF	2	3	0	1	0	0	0	0	0	0	0	0	0	0	
258	258	011C	00000000	00000	0054	FFFFFFFF	2	3	0	1	0	0	0	0	0	0	0	0	0	0	
259	259	011C	00000000	00000	0054	FFFFFFFF	2	3	0	1	0	0	0	0	0	0	0	0	0	0	
260	260	011C	00000000	00000	0054	FFFFFFFF	2	3	0	1	0	0	0	0	0	0	0	0	0	0	
261	261	011C	00000000	00000	0054	FFFFFFFF	2	3	0	1	0	0	0	0	0	0	0	0	0	0	
262	262	011C	00000000	00000	0054	FFFFFFFF	2	3	0	1	0	0	0	0	0	0	0	0	0	0	
263	263	011C	00000000	00000	0054	FFFFFFFF	2	3	0	1	0	0	0	0	0	0	0	0	0	0	
264	264	011C	00000000	00000	0054	FFFFFFFF	2	3	0	1	0	0	0	0	0	0	0	0	0	0	
265	265	011C	00000000	00000	0054	FFFFFFFF	2	3	0	1	0	0	0	0	0	0	0	0	0	0	
266	266	011C	00000000	00000	0054	FFFFFFFF	2	3	0	1	0	0	0	0	0	0	0	0	0	0	
267	267	011C	00000000	00000	0054	FFFFFFFF	2	3	0	1	0	0	0	0	0	0	0	0	0	0	
268	268	011C	00000000	00000	0054	FFFFFFFF	2	3	0	1	0	0	0	0	0	0	0	0	0	0	
269	269	011C	00000000	00000	0054	FFFFFFFF	2	3	0	1	0	0	0	0	0	0	0	0	0	0	
270	270	011C	00000000	00000	0054	FFFFFFFF	2	3	0	1	0	0	0	0	0	0	0	0	0	0	
271	271	011C	00000000	00000	0054	FFFFFFFF	2	3	0	1	0	0	0	0	0	0	0	0	0	0	
272	272	011C	00000000	00000	0054	FFFFFFFF	2	3	0	1	0	0	0	0	0	0	0	0	0	0	
273	273	011C	00000000	00000	0054	FFFFFFFF	2	3	0	1	0	0	0	0	0	0	0	0	0	0	
274	274	011C	00000000	00000	0054	FFFFFFFF	2	3	0	1	0	0	0	0	0	0	0	0	0	0	
275	275	011C	00000000	00000	0054	FFFFFFFF	2	3	0	1	0	0	0	0	0	0	0	0	0	0	
276	276	011C	00000000	00000	0054	FFFFFFFF	2	3	0	1	0	0	0	0	0	0	0	0	0	0	
277	277	011C	00000000	00000	0054	FFFFFFFF	2	3	0	1	0	0	0	0	0	0	0	0	0	0	
278	278	011C	00000000	00000	0054	FFFFFFFF	2	3	0	1	0	0	0	0	0	0	0	0	0	0	
279	279	011C	00000000	00000	0054	FFFFFFFF	2	3	0	1	0	0	0	0	0	0	0	0	0	0	
280	280	011C	00000000	00000	0054	FFFFFFFF	2	3	0	1	0	0	0	0	0	0	0	0	0	0	
